T087C 000:010.445   SEGGER J-Link V6.86 Log File
T087C 000:010.692   DLL Compiled: Sep 24 2020 17:31:31
T087C 000:010.705   Logging started @ 2026-03-06 12:33
T087C 000:010.722 - 10.730ms
T087C 000:010.748 JLINK_SetWarnOutHandler(...)
T087C 000:010.763 - 0.021ms
T087C 000:010.778 JLINK_OpenEx(...)
T087C 000:013.174   Firmware: J-Link V9 compiled Dec 13 2022 11:14:50
T087C 000:013.436   Decompressing FW timestamp took 186 us
T087C 000:018.899   Hardware: V9.70
T087C 000:018.944   S/N: 69741112
T087C 000:018.957   OEM: SEGGER
T087C 000:018.970   Feature(s): RDI, GDB, FlashDL, FlashBP, JFlash
T087C 000:020.320   TELNET listener socket opened on port 19021
T087C 000:020.697   WEBSRV Starting webserver
T087C 000:020.958   WEBSRV Webserver running on local port 19080
T087C 000:020.994 - 10.223ms returns "O.K."
T087C 000:021.039 JLINK_GetEmuCaps()
T087C 000:021.056 - 0.024ms returns 0xB9FF7BBF
T087C 000:021.086 JLINK_TIF_GetAvailable(...)
T087C 000:021.257 - 0.185ms
T087C 000:021.292 JLINK_SetErrorOutHandler(...)
T087C 000:021.308 - 0.023ms
T087C 000:021.350 JLINK_ExecCommand("ProjectFile = "D:\BEE\test_code_26\JLinkSettings.ini"", ...). 
T087C 000:032.871 - 11.545ms returns 0x00
T087C 000:046.966 JLINK_ExecCommand("Device = MKE02Z64xxx4", ...). 
T087C 000:051.070   Device "MKE02Z64XXX4" selected.
T087C 000:051.737 - 4.741ms returns 0x00
T087C 000:051.786 JLINK_GetHardwareVersion()
T087C 000:051.809 - 0.030ms returns 97000
T087C 000:051.837 JLINK_GetDLLVersion()
T087C 000:051.852 - 0.021ms returns 68600
T087C 000:051.869 JLINK_GetOEMString(...)
T087C 000:051.885 JLINK_GetFirmwareString(...)
T087C 000:051.900 - 0.021ms
T087C 000:061.863 JLINK_GetDLLVersion()
T087C 000:061.896 - 0.037ms returns 68600
T087C 000:061.908 JLINK_GetCompileDateTime()
T087C 000:061.917 - 0.012ms
T087C 000:064.804 JLINK_GetFirmwareString(...)
T087C 000:064.828 - 0.029ms
T087C 000:068.343 JLINK_GetHardwareVersion()
T087C 000:068.386 - 0.048ms returns 97000
T087C 000:071.819 JLINK_GetSN()
T087C 000:071.850 - 0.036ms returns 69741112
T087C 000:075.062 JLINK_GetOEMString(...)
T087C 000:080.767 JLINK_TIF_Select(JLINKARM_TIF_SWD)
T087C 000:081.539 - 0.791ms returns 0x00
T087C 000:081.569 JLINK_HasError()
T087C 000:081.607 JLINK_SetSpeed(5000)
T087C 000:081.718 - 0.120ms
T087C 000:081.738 JLINK_GetId()
T087C 000:085.636   InitTarget()
T087C 000:141.810   Found SW-DP with ID 0x0BC11477
T087C 000:143.138   Old FW that does not support reading DPIDR via DAP jobs
T087C 000:146.723   Unknown DP version. Assuming DPv0
T087C 000:150.016   Scanning AP map to find all available APs
T087C 000:154.634   AP[2]: Stopped AP scan as end of AP map has been reached
T087C 000:157.561   AP[0]: AHB-AP (IDR: 0x04770031)
T087C 000:160.471   AP[1]: JTAG-AP (IDR: 0x001C0020)
T087C 000:163.361   Iterating through AP map to find AHB-AP to use
T087C 000:167.571   AP[0]: Core found
T087C 000:171.554   AP[0]: AHB-AP ROM base: 0xF0002000
T087C 000:175.032   CPUID register: 0x410CC600. Implementer code: 0x41 (ARM)
T087C 000:177.895   Found Cortex-M0 r0p0, Little endian.
T087C 000:278.804   -- Max. mem block: 0x00010BB0
T087C 000:278.880   CPU_ReadMem(4 bytes @ 0xE000EDF0)
T087C 000:279.323   CPU_WriteMem(4 bytes @ 0xE000EDF0)
T087C 000:279.770   CPU_ReadMem(4 bytes @ 0xE0002000)
T087C 000:284.090   FPUnit: 2 code (BP) slots and 0 literal slots
T087C 000:284.122   CPU_ReadMem(4 bytes @ 0xE000EDFC)
T087C 000:284.505   CPU_WriteMem(4 bytes @ 0xE000EDFC)
T087C 000:284.890   CPU_ReadMem(4 bytes @ 0xE0001000)
T087C 000:285.192   CPU_WriteMem(4 bytes @ 0xE0001000)
T087C 000:288.406   CoreSight components:
T087C 000:291.287   ROMTbl[0] @ F0002000
T087C 000:291.316   CPU_ReadMem(64 bytes @ 0xF0002000)
T087C 000:291.951   CPU_ReadMem(32 bytes @ 0xE00FFFE0)
T087C 000:296.741   ROMTbl[0][0]: E00FF000, CID: B105100D, PID: 000BB4C0 ROM Table
T087C 000:299.789   ROMTbl[1] @ E00FF000
T087C 000:299.822   CPU_ReadMem(64 bytes @ 0xE00FF000)
T087C 000:300.347   CPU_ReadMem(32 bytes @ 0xE000EFE0)
T087C 000:304.279   ROMTbl[1][0]: E000E000, CID: B105E00D, PID: 000BB008 SCS
T087C 000:304.422   CPU_ReadMem(32 bytes @ 0xE0001FE0)
T087C 000:307.870   ROMTbl[1][1]: E0001000, CID: B105E00D, PID: 000BB00A DWT
T087C 000:307.903   CPU_ReadMem(32 bytes @ 0xE0002FE0)
T087C 000:311.431   ROMTbl[1][2]: E0002000, CID: B105E00D, PID: 000BB00B FPB
T087C 000:314.464   Executing SetupTarget()
T087C 000:314.519   CPU_ReadMem(4 bytes @ 0x40048004)
T087C 000:315.124 - 233.415ms returns 0x0BC11477
T087C 000:315.188 JLINK_GetDLLVersion()
T087C 000:315.198 - 0.014ms returns 68600
T087C 000:315.210 JLINK_CORE_GetFound()
T087C 000:315.219 - 0.013ms returns 0x60000FF
T087C 000:315.235 JLINK_GetDebugInfo(0x100 = JLINKARM_ROM_TABLE_ADDR_INDEX)
T087C 000:315.246   Value=0xF0002000
T087C 000:315.258 - 0.027ms returns 0
T087C 000:318.523 JLINK_GetDebugInfo(0x100 = JLINKARM_ROM_TABLE_ADDR_INDEX)
T087C 000:318.550   Value=0xF0002000
T087C 000:318.563 - 0.045ms returns 0
T087C 000:318.576 JLINK_GetDebugInfo(0x101 = JLINKARM_DEBUG_INFO_ETM_ADDR_INDEX)
T087C 000:318.586   Value=0x00000000
T087C 000:318.598 - 0.026ms returns 0
T087C 000:318.616 JLINK_ReadMemEx(0xE0041FF0, 0x10 Bytes, Flags = 0x02000004)
T087C 000:318.641   CPU_ReadMem(16 bytes @ 0xE0041FF0)
T087C 000:319.017   Data:  00 00 00 00 00 00 00 00 00 00 00 00 00 00 00 00
T087C 000:319.047 - 0.435ms returns 16 (0x10)
T087C 000:319.062 JLINK_GetDebugInfo(0x102 = JLINKARM_DEBUG_INFO_MTB_ADDR_INDEX)
T087C 000:319.073   Value=0x00000000
T087C 000:319.085 - 0.027ms returns 0
T087C 000:319.096 JLINK_GetDebugInfo(0x103 = JLINKARM_DEBUG_INFO_TPIU_ADDR_INDEX)
T087C 000:319.105   Value=0x00000000
T087C 000:319.117 - 0.025ms returns 0
T087C 000:319.128 JLINK_ReadMemEx(0xE0040FF0, 0x10 Bytes, Flags = 0x02000004)
T087C 000:319.145   CPU_ReadMem(16 bytes @ 0xE0040FF0)
T087C 000:319.500   Data:  00 00 00 00 00 00 00 00 00 00 00 00 00 00 00 00
T087C 000:319.538 - 0.417ms returns 16 (0x10)
T087C 000:319.561 JLINK_GetDebugInfo(0x104 = JLINKARM_DEBUG_INFO_ITM_ADDR_INDEX)
T087C 000:319.572   Value=0xE0000000
T087C 000:319.586 - 0.029ms returns 0
T087C 000:319.596 JLINK_GetDebugInfo(0x105 = JLINKARM_DEBUG_INFO_DWT_ADDR_INDEX)
T087C 000:319.616   Value=0xE0001000
T087C 000:319.636 - 0.044ms returns 0
T087C 000:319.649 JLINK_GetDebugInfo(0x106 = JLINKARM_DEBUG_INFO_FPB_ADDR_INDEX)
T087C 000:319.665   Value=0xE0002000
T087C 000:319.684 - 0.042ms returns 0
T087C 000:319.701 JLINK_GetDebugInfo(0x107 = JLINKARM_DEBUG_INFO_NVIC_ADDR_INDEX)
T087C 000:319.716   Value=0xE000E000
T087C 000:319.737 - 0.042ms returns 0
T087C 000:319.754 JLINK_GetDebugInfo(0x10C = JLINKARM_DEBUG_INFO_DBG_ADDR_INDEX)
T087C 000:319.771   Value=0xE000EDF0
T087C 000:319.793 - 0.045ms returns 0
T087C 000:319.810 JLINK_GetDebugInfo(0x01 = Unknown)
T087C 000:319.826   Value=0x00000000
T087C 000:319.848 - 0.042ms returns 0
T087C 000:319.859 JLINK_ReadMemU32(0xE000ED00, 0x1 Items)
T087C 000:319.876   CPU_ReadMem(4 bytes @ 0xE000ED00)
T087C 000:320.146   Data:  00 C6 0C 41
T087C 000:320.171   Debug reg: CPUID
T087C 000:320.183 - 0.328ms returns 1 (0x1)
T087C 000:320.197 JLINK_GetDebugInfo(0x10F = JLINKARM_DEBUG_INFO_HAS_CORTEX_M_SECURITY_EXT_INDEX)
T087C 000:320.206   Value=0x00000000
T087C 000:320.219 - 0.026ms returns 0
T087C 000:320.231 JLINK_HasError()
T087C 000:320.242 JLINK_SetResetType(JLINKARM_CM3_RESET_TYPE_NORMAL)
T087C 000:320.251 - 0.013ms returns JLINKARM_CM3_RESET_TYPE_NORMAL
T087C 000:320.261 JLINK_Reset()
T087C 000:320.291   CPU is running
T087C 000:320.305   CPU_WriteMem(4 bytes @ 0xE000EDF0)
T087C 000:320.637   CPU is running
T087C 000:320.667   CPU_WriteMem(4 bytes @ 0xE000EDFC)
T087C 000:324.051   Reset: Halt core after reset via DEMCR.VC_CORERESET.
T087C 000:327.679   Reset: Reset device via AIRCR.SYSRESETREQ.
T087C 000:327.713   CPU is running
T087C 000:327.729   CPU_WriteMem(4 bytes @ 0xE000ED0C)
T087C 000:380.612   CPU_ReadMem(4 bytes @ 0xE000EDF0)
T087C 000:380.969   CPU_ReadMem(4 bytes @ 0xE000EDF0)
T087C 000:381.290   CPU is running
T087C 000:381.326   CPU_WriteMem(4 bytes @ 0xE000EDF0)
T087C 000:381.616   CPU is running
T087C 000:381.656   CPU_WriteMem(4 bytes @ 0xE000EDFC)
T087C 000:387.792   CPU_ReadMem(4 bytes @ 0xE000EDF0)
T087C 000:394.866   AfterResetTarget()
T087C 000:394.940   CPU_ReadMem(4 bytes @ 0x40048004)
T087C 000:398.256   Disable watchdog()
T087C 000:403.976   Disable watchdog(): Watchdog enabled --> Disable it
T087C 000:406.299   CPU_WriteMem(4 bytes @ 0xE0002000)
T087C 000:406.572   CPU_ReadMem(4 bytes @ 0xE000EDFC)
T087C 000:406.812   CPU_ReadMem(4 bytes @ 0xE0001000)
T087C 000:407.051   CPU_WriteMem(4 bytes @ 0xE0001000)
T087C 000:407.318 - 87.066ms
T087C 000:407.436 JLINK_Halt()
T087C 000:407.450 - 0.018ms returns 0x00
T087C 000:407.464 JLINK_ReadMemU32(0xE000EDF0, 0x1 Items)
T087C 000:407.483   CPU_ReadMem(4 bytes @ 0xE000EDF0)
T087C 000:407.749   Data:  03 00 03 00
T087C 000:407.767   Debug reg: DHCSR
T087C 000:407.779 - 0.319ms returns 1 (0x1)
T087C 000:407.799 JLINK_WriteU32_64(0xE000EDF0, 0xA05F0003)
T087C 000:407.812   Debug reg: DHCSR
T087C 000:407.844   CPU_WriteMem(4 bytes @ 0xE000EDF0)
T087C 000:408.105 - 0.314ms returns 0 (0x00000000)
T087C 000:408.122 JLINK_WriteU32_64(0xE000EDFC, 0x01000000)
T087C 000:408.132   Debug reg: DEMCR
T087C 000:408.150   CPU_WriteMem(4 bytes @ 0xE000EDFC)
T087C 000:408.410 - 0.297ms returns 0 (0x00000000)
T087C 000:420.988 JLINK_GetHWStatus(...)
T087C 000:421.218 - 0.249ms returns 0
T087C 000:429.730 JLINK_GetNumBPUnits(Type = 0xFFFFFF00)
T087C 000:429.758 - 0.032ms returns 0x02
T087C 000:429.770 JLINK_GetNumBPUnits(Type = 0xF0)
T087C 000:429.779 - 0.013ms returns 0x2000
T087C 000:429.789 JLINK_GetNumWPUnits()
T087C 000:429.797 - 0.012ms returns 2
T087C 000:439.467 JLINK_GetSpeed()
T087C 000:439.497 - 0.035ms returns 4000
T087C 000:445.114 JLINK_ReadMemU32(0xE000E004, 0x1 Items)
T087C 000:445.154   CPU_ReadMem(4 bytes @ 0xE000E004)
T087C 000:445.503   Data:  00 00 00 00
T087C 000:445.531 - 0.421ms returns 1 (0x1)
T087C 000:445.552 JLINK_Halt()
T087C 000:445.563 - 0.014ms returns 0x00
T087C 000:445.574 JLINK_IsHalted()
T087C 000:445.584 - 0.013ms returns TRUE
T087C 000:450.575 JLINK_WriteMem(0x1FFFFC00, 0x1AC Bytes, ...)
T087C 000:450.597   Data:  00 BE 0A E0 0D 78 2D 06 68 40 08 24 40 00 00 D3 ...
T087C 000:451.095   CPU_WriteMem(428 bytes @ 0x1FFFFC00)
T087C 000:453.493 - 2.979ms returns 0x1AC
T087C 000:453.682 JLINK_HasError()
T087C 000:453.700 JLINK_WriteReg(R0, 0x00000000)
T087C 000:453.720 - 0.025ms returns 0
T087C 000:453.732 JLINK_WriteReg(R1, 0x00B71B00)
T087C 000:453.742 - 0.014ms returns 0
T087C 000:453.753 JLINK_WriteReg(R2, 0x00000001)
T087C 000:453.787 - 0.038ms returns 0
T087C 000:453.798 JLINK_WriteReg(R3, 0x00000000)
T087C 000:453.808 - 0.014ms returns 0
T087C 000:453.818 JLINK_WriteReg(R4, 0x00000000)
T087C 000:453.827 - 0.013ms returns 0
T087C 000:453.838 JLINK_WriteReg(R5, 0x00000000)
T087C 000:453.847 - 0.013ms returns 0
T087C 000:453.858 JLINK_WriteReg(R6, 0x00000000)
T087C 000:453.867 - 0.013ms returns 0
T087C 000:453.877 JLINK_WriteReg(R7, 0x00000000)
T087C 000:453.886 - 0.016ms returns 0
T087C 000:453.899 JLINK_WriteReg(R8, 0x00000000)
T087C 000:453.929 - 0.034ms returns 0
T087C 000:453.940 JLINK_WriteReg(R9, 0x1FFFFDA8)
T087C 000:453.949 - 0.013ms returns 0
T087C 000:453.960 JLINK_WriteReg(R10, 0x00000000)
T087C 000:453.969 - 0.013ms returns 0
T087C 000:453.980 JLINK_WriteReg(R11, 0x00000000)
T087C 000:453.990 - 0.014ms returns 0
T087C 000:454.000 JLINK_WriteReg(R12, 0x00000000)
T087C 000:454.009 - 0.013ms returns 0
T087C 000:454.020 JLINK_WriteReg(R13 (SP), 0x20000C00)
T087C 000:454.031 - 0.015ms returns 0
T087C 000:454.041 JLINK_WriteReg(R14, 0x1FFFFC01)
T087C 000:454.050 - 0.013ms returns 0
T087C 000:454.061 JLINK_WriteReg(R15 (PC), 0x1FFFFC38)
T087C 000:454.074 - 0.017ms returns 0
T087C 000:454.084 JLINK_WriteReg(XPSR, 0x01000000)
T087C 000:454.094 - 0.013ms returns 0
T087C 000:454.104 JLINK_WriteReg(MSP, 0x20000C00)
T087C 000:454.113 - 0.013ms returns 0
T087C 000:454.124 JLINK_WriteReg(PSP, 0x20000C00)
T087C 000:454.133 - 0.014ms returns 0
T087C 000:454.155 JLINK_WriteReg(CFBP, 0x00000000)
T087C 000:454.168 - 0.018ms returns 0
T087C 000:454.180 JLINK_SetBPEx(Addr = 0x1FFFFC00, Type = 0xFFFFFFF2)
T087C 000:454.194 - 0.019ms returns 0x00000001
T087C 000:454.207 JLINK_Go()
T087C 000:454.227   CPU_WriteMem(4 bytes @ 0xE0002000)
T087C 000:454.673   CPU_ReadMem(4 bytes @ 0xE0001000)
T087C 000:455.028   CPU_WriteMem(4 bytes @ 0xE0001000)
T087C 000:455.048   CPU_WriteMem(4 bytes @ 0xE0002008)
T087C 000:455.062   CPU_WriteMem(4 bytes @ 0xE000200C)
T087C 000:455.744   CPU_WriteMem(4 bytes @ 0xE0001004)
T087C 000:457.787 - 3.592ms
T087C 000:457.808 JLINK_IsHalted()
T087C 000:459.598 - 1.802ms returns TRUE
T087C 000:459.642 JLINK_ReadReg(R15 (PC))
T087C 000:459.655 - 0.017ms returns 0x1FFFFC00
T087C 000:459.666 JLINK_ClrBPEx(BPHandle = 0x00000001)
T087C 000:459.676 - 0.014ms returns 0x00
T087C 000:459.692 JLINK_ReadReg(R0)
T087C 000:459.702 - 0.014ms returns 0x00000000
T087C 000:460.433 JLINK_HasError()
T087C 000:460.457 JLINK_WriteReg(R0, 0x00000000)
T087C 000:460.469 - 0.017ms returns 0
T087C 000:460.480 JLINK_WriteReg(R1, 0x00000200)
T087C 000:460.490 - 0.014ms returns 0
T087C 000:460.501 JLINK_WriteReg(R2, 0x000000FF)
T087C 000:460.510 - 0.013ms returns 0
T087C 000:460.520 JLINK_WriteReg(R3, 0x00000000)
T087C 000:460.529 - 0.013ms returns 0
T087C 000:460.539 JLINK_WriteReg(R4, 0x00000000)
T087C 000:460.548 - 0.013ms returns 0
T087C 000:460.559 JLINK_WriteReg(R5, 0x00000000)
T087C 000:460.567 - 0.013ms returns 0
T087C 000:460.578 JLINK_WriteReg(R6, 0x00000000)
T087C 000:460.586 - 0.013ms returns 0
T087C 000:460.597 JLINK_WriteReg(R7, 0x00000000)
T087C 000:460.605 - 0.013ms returns 0
T087C 000:460.616 JLINK_WriteReg(R8, 0x00000000)
T087C 000:460.625 - 0.013ms returns 0
T087C 000:460.635 JLINK_WriteReg(R9, 0x1FFFFDA8)
T087C 000:460.643 - 0.012ms returns 0
T087C 000:460.654 JLINK_WriteReg(R10, 0x00000000)
T087C 000:460.663 - 0.013ms returns 0
T087C 000:460.673 JLINK_WriteReg(R11, 0x00000000)
T087C 000:460.682 - 0.013ms returns 0
T087C 000:460.693 JLINK_WriteReg(R12, 0x00000000)
T087C 000:460.701 - 0.013ms returns 0
T087C 000:460.711 JLINK_WriteReg(R13 (SP), 0x20000C00)
T087C 000:460.721 - 0.013ms returns 0
T087C 000:460.731 JLINK_WriteReg(R14, 0x1FFFFC01)
T087C 000:460.740 - 0.013ms returns 0
T087C 000:460.751 JLINK_WriteReg(R15 (PC), 0x1FFFFC20)
T087C 000:460.781 - 0.035ms returns 0
T087C 000:460.792 JLINK_WriteReg(XPSR, 0x01000000)
T087C 000:460.801 - 0.013ms returns 0
T087C 000:460.812 JLINK_WriteReg(MSP, 0x20000C00)
T087C 000:460.821 - 0.013ms returns 0
T087C 000:460.831 JLINK_WriteReg(PSP, 0x20000C00)
T087C 000:460.840 - 0.013ms returns 0
T087C 000:460.850 JLINK_WriteReg(CFBP, 0x00000000)
T087C 000:460.859 - 0.013ms returns 0
T087C 000:460.870 JLINK_SetBPEx(Addr = 0x1FFFFC00, Type = 0xFFFFFFF2)
T087C 000:460.880 - 0.014ms returns 0x00000002
T087C 000:460.891 JLINK_Go()
T087C 000:460.904   CPU_WriteMem(4 bytes @ 0xE0002000)
T087C 000:461.285   CPU_ReadMem(4 bytes @ 0xE0001000)
T087C 000:461.659   CPU_WriteMem(4 bytes @ 0xE0001000)
T087C 000:463.867 - 2.995ms
T087C 000:463.900 JLINK_IsHalted()
T087C 000:465.806 - 1.926ms returns TRUE
T087C 000:465.838 JLINK_ReadReg(R15 (PC))
T087C 000:465.850 - 0.017ms returns 0x1FFFFC00
T087C 000:465.861 JLINK_ClrBPEx(BPHandle = 0x00000002)
T087C 000:465.872 - 0.014ms returns 0x00
T087C 000:465.883 JLINK_ReadReg(R0)
T087C 000:465.892 - 0.013ms returns 0x00000001
T087C 000:465.903 JLINK_HasError()
T087C 000:465.914 JLINK_WriteReg(R0, 0x00000000)
T087C 000:465.924 - 0.014ms returns 0
T087C 000:465.935 JLINK_WriteReg(R1, 0x00000200)
T087C 000:465.944 - 0.013ms returns 0
T087C 000:465.954 JLINK_WriteReg(R2, 0x000000FF)
T087C 000:465.963 - 0.013ms returns 0
T087C 000:465.974 JLINK_WriteReg(R3, 0x00000000)
T087C 000:465.983 - 0.013ms returns 0
T087C 000:465.993 JLINK_WriteReg(R4, 0x00000000)
T087C 000:466.002 - 0.013ms returns 0
T087C 000:466.012 JLINK_WriteReg(R5, 0x00000000)
T087C 000:466.021 - 0.013ms returns 0
T087C 000:466.031 JLINK_WriteReg(R6, 0x00000000)
T087C 000:466.123 - 0.100ms returns 0
T087C 000:466.139 JLINK_WriteReg(R7, 0x00000000)
T087C 000:466.149 - 0.013ms returns 0
T087C 000:466.159 JLINK_WriteReg(R8, 0x00000000)
T087C 000:466.169 - 0.013ms returns 0
T087C 000:466.179 JLINK_WriteReg(R9, 0x1FFFFDA8)
T087C 000:466.188 - 0.013ms returns 0
T087C 000:466.198 JLINK_WriteReg(R10, 0x00000000)
T087C 000:466.207 - 0.013ms returns 0
T087C 000:466.218 JLINK_WriteReg(R11, 0x00000000)
T087C 000:466.227 - 0.013ms returns 0
T087C 000:466.238 JLINK_WriteReg(R12, 0x00000000)
T087C 000:466.247 - 0.013ms returns 0
T087C 000:466.257 JLINK_WriteReg(R13 (SP), 0x20000C00)
T087C 000:466.267 - 0.013ms returns 0
T087C 000:466.277 JLINK_WriteReg(R14, 0x1FFFFC01)
T087C 000:466.286 - 0.013ms returns 0
T087C 000:466.296 JLINK_WriteReg(R15 (PC), 0x1FFFFCDA)
T087C 000:466.305 - 0.013ms returns 0
T087C 000:466.316 JLINK_WriteReg(XPSR, 0x01000000)
T087C 000:466.325 - 0.013ms returns 0
T087C 000:466.335 JLINK_WriteReg(MSP, 0x20000C00)
T087C 000:466.344 - 0.013ms returns 0
T087C 000:466.355 JLINK_WriteReg(PSP, 0x20000C00)
T087C 000:466.364 - 0.013ms returns 0
T087C 000:466.374 JLINK_WriteReg(CFBP, 0x00000000)
T087C 000:466.383 - 0.013ms returns 0
T087C 000:466.393 JLINK_SetBPEx(Addr = 0x1FFFFC00, Type = 0xFFFFFFF2)
T087C 000:466.404 - 0.014ms returns 0x00000003
T087C 000:466.414 JLINK_Go()
T087C 000:466.427   CPU_WriteMem(4 bytes @ 0xE0002000)
T087C 000:466.775   CPU_ReadMem(4 bytes @ 0xE0001000)
T087C 000:467.079   CPU_WriteMem(4 bytes @ 0xE0001000)
T087C 000:469.178 - 2.783ms
T087C 000:469.208 JLINK_IsHalted()
T087C 000:469.448 - 0.251ms returns FALSE
T087C 000:469.469 JLINK_HasError()
T087C 000:493.664 JLINK_IsHalted()
T087C 000:495.872 - 2.230ms returns TRUE
T087C 000:495.907 JLINK_ReadReg(R15 (PC))
T087C 000:495.922 - 0.019ms returns 0x1FFFFC00
T087C 000:495.934 JLINK_ClrBPEx(BPHandle = 0x00000003)
T087C 000:495.945 - 0.015ms returns 0x00
T087C 000:495.957 JLINK_ReadReg(R0)
T087C 000:495.967 - 0.014ms returns 0x00000000
T087C 000:497.249 JLINK_HasError()
T087C 000:497.280 JLINK_WriteReg(R0, 0x00000200)
T087C 000:497.295 - 0.019ms returns 0
T087C 000:497.306 JLINK_WriteReg(R1, 0x00000200)
T087C 000:497.316 - 0.014ms returns 0
T087C 000:497.327 JLINK_WriteReg(R2, 0x000000FF)
T087C 000:497.336 - 0.013ms returns 0
T087C 000:497.346 JLINK_WriteReg(R3, 0x00000000)
T087C 000:497.355 - 0.013ms returns 0
T087C 000:497.365 JLINK_WriteReg(R4, 0x00000000)
T087C 000:497.375 - 0.013ms returns 0
T087C 000:497.385 JLINK_WriteReg(R5, 0x00000000)
T087C 000:497.395 - 0.014ms returns 0
T087C 000:497.405 JLINK_WriteReg(R6, 0x00000000)
T087C 000:497.414 - 0.012ms returns 0
T087C 000:497.424 JLINK_WriteReg(R7, 0x00000000)
T087C 000:497.433 - 0.013ms returns 0
T087C 000:497.443 JLINK_WriteReg(R8, 0x00000000)
T087C 000:497.462 - 0.023ms returns 0
T087C 000:497.473 JLINK_WriteReg(R9, 0x1FFFFDA8)
T087C 000:497.482 - 0.013ms returns 0
T087C 000:497.492 JLINK_WriteReg(R10, 0x00000000)
T087C 000:497.501 - 0.013ms returns 0
T087C 000:497.511 JLINK_WriteReg(R11, 0x00000000)
T087C 000:497.520 - 0.013ms returns 0
T087C 000:497.530 JLINK_WriteReg(R12, 0x00000000)
T087C 000:497.539 - 0.013ms returns 0
T087C 000:497.549 JLINK_WriteReg(R13 (SP), 0x20000C00)
T087C 000:497.559 - 0.014ms returns 0
T087C 000:497.569 JLINK_WriteReg(R14, 0x1FFFFC01)
T087C 000:497.578 - 0.013ms returns 0
T087C 000:497.588 JLINK_WriteReg(R15 (PC), 0x1FFFFC20)
T087C 000:497.597 - 0.013ms returns 0
T087C 000:497.607 JLINK_WriteReg(XPSR, 0x01000000)
T087C 000:497.616 - 0.013ms returns 0
T087C 000:497.626 JLINK_WriteReg(MSP, 0x20000C00)
T087C 000:497.635 - 0.013ms returns 0
T087C 000:497.645 JLINK_WriteReg(PSP, 0x20000C00)
T087C 000:497.655 - 0.014ms returns 0
T087C 000:497.665 JLINK_WriteReg(CFBP, 0x00000000)
T087C 000:497.674 - 0.013ms returns 0
T087C 000:497.685 JLINK_SetBPEx(Addr = 0x1FFFFC00, Type = 0xFFFFFFF2)
T087C 000:497.696 - 0.015ms returns 0x00000004
T087C 000:497.707 JLINK_Go()
T087C 000:497.726   CPU_WriteMem(4 bytes @ 0xE0002000)
T087C 000:498.194   CPU_ReadMem(4 bytes @ 0xE0001000)
T087C 000:498.551   CPU_WriteMem(4 bytes @ 0xE0001000)
T087C 000:500.772 - 3.093ms
T087C 000:500.816 JLINK_IsHalted()
T087C 000:502.692 - 1.900ms returns TRUE
T087C 000:502.729 JLINK_ReadReg(R15 (PC))
T087C 000:502.742 - 0.018ms returns 0x1FFFFC00
T087C 000:502.754 JLINK_ClrBPEx(BPHandle = 0x00000004)
T087C 000:502.765 - 0.020ms returns 0x00
T087C 000:502.789 JLINK_ReadReg(R0)
T087C 000:502.811 - 0.031ms returns 0x00000001
T087C 000:502.835 JLINK_HasError()
T087C 000:502.854 JLINK_WriteReg(R0, 0x00000200)
T087C 000:502.868 - 0.019ms returns 0
T087C 000:502.882 JLINK_WriteReg(R1, 0x00000200)
T087C 000:502.894 - 0.018ms returns 0
T087C 000:502.908 JLINK_WriteReg(R2, 0x000000FF)
T087C 000:502.920 - 0.017ms returns 0
T087C 000:502.933 JLINK_WriteReg(R3, 0x00000000)
T087C 000:502.944 - 0.016ms returns 0
T087C 000:502.957 JLINK_WriteReg(R4, 0x00000000)
T087C 000:502.968 - 0.017ms returns 0
T087C 000:502.981 JLINK_WriteReg(R5, 0x00000000)
T087C 000:502.993 - 0.017ms returns 0
T087C 000:503.006 JLINK_WriteReg(R6, 0x00000000)
T087C 000:503.018 - 0.016ms returns 0
T087C 000:503.031 JLINK_WriteReg(R7, 0x00000000)
T087C 000:503.042 - 0.017ms returns 0
T087C 000:503.055 JLINK_WriteReg(R8, 0x00000000)
T087C 000:503.067 - 0.017ms returns 0
T087C 000:503.080 JLINK_WriteReg(R9, 0x1FFFFDA8)
T087C 000:503.091 - 0.016ms returns 0
T087C 000:503.104 JLINK_WriteReg(R10, 0x00000000)
T087C 000:503.115 - 0.017ms returns 0
T087C 000:503.129 JLINK_WriteReg(R11, 0x00000000)
T087C 000:503.140 - 0.016ms returns 0
T087C 000:503.153 JLINK_WriteReg(R12, 0x00000000)
T087C 000:503.164 - 0.016ms returns 0
T087C 000:503.177 JLINK_WriteReg(R13 (SP), 0x20000C00)
T087C 000:503.189 - 0.018ms returns 0
T087C 000:503.203 JLINK_WriteReg(R14, 0x1FFFFC01)
T087C 000:503.215 - 0.017ms returns 0
T087C 000:503.228 JLINK_WriteReg(R15 (PC), 0x1FFFFCDA)
T087C 000:503.240 - 0.016ms returns 0
T087C 000:503.253 JLINK_WriteReg(XPSR, 0x01000000)
T087C 000:503.264 - 0.016ms returns 0
T087C 000:503.277 JLINK_WriteReg(MSP, 0x20000C00)
T087C 000:503.288 - 0.016ms returns 0
T087C 000:503.301 JLINK_WriteReg(PSP, 0x20000C00)
T087C 000:503.312 - 0.017ms returns 0
T087C 000:503.326 JLINK_WriteReg(CFBP, 0x00000000)
T087C 000:503.337 - 0.016ms returns 0
T087C 000:503.351 JLINK_SetBPEx(Addr = 0x1FFFFC00, Type = 0xFFFFFFF2)
T087C 000:503.364 - 0.019ms returns 0x00000005
T087C 000:503.377 JLINK_Go()
T087C 000:503.404   CPU_WriteMem(4 bytes @ 0xE0002000)
T087C 000:503.792   CPU_ReadMem(4 bytes @ 0xE0001000)
T087C 000:504.057   CPU_WriteMem(4 bytes @ 0xE0001000)
T087C 000:506.093 - 2.734ms
T087C 000:506.124 JLINK_IsHalted()
T087C 000:506.359 - 0.244ms returns FALSE
T087C 000:506.377 JLINK_HasError()
T087C 000:507.823 JLINK_IsHalted()
T087C 000:508.091 - 0.277ms returns FALSE
T087C 000:508.110 JLINK_HasError()
T087C 000:509.361 JLINK_IsHalted()
T087C 000:509.789 - 0.455ms returns FALSE
T087C 000:509.837 JLINK_HasError()
T087C 000:511.532 JLINK_IsHalted()
T087C 000:511.917 - 0.403ms returns FALSE
T087C 000:511.966 JLINK_HasError()
T087C 000:513.337 JLINK_IsHalted()
T087C 000:513.671 - 0.352ms returns FALSE
T087C 000:513.701 JLINK_HasError()
T087C 000:515.400 JLINK_IsHalted()
T087C 000:515.789 - 0.418ms returns FALSE
T087C 000:515.839 JLINK_HasError()
T087C 000:517.787 JLINK_IsHalted()
T087C 000:518.200 - 0.448ms returns FALSE
T087C 000:518.260 JLINK_HasError()
T087C 000:519.801 JLINK_IsHalted()
T087C 000:520.173 - 0.391ms returns FALSE
T087C 000:520.204 JLINK_HasError()
T087C 000:522.228 JLINK_IsHalted()
T087C 000:522.631 - 0.420ms returns FALSE
T087C 000:522.661 JLINK_HasError()
T087C 000:524.243 JLINK_IsHalted()
T087C 000:524.557 - 0.331ms returns FALSE
T087C 000:524.586 JLINK_HasError()
T087C 000:526.511 JLINK_IsHalted()
T087C 000:526.906 - 0.425ms returns FALSE
T087C 000:526.958 JLINK_HasError()
T087C 000:528.493 JLINK_IsHalted()
T087C 000:530.492 - 2.020ms returns TRUE
T087C 000:530.524 JLINK_ReadReg(R15 (PC))
T087C 000:530.538 - 0.018ms returns 0x1FFFFC00
T087C 000:530.627 JLINK_ClrBPEx(BPHandle = 0x00000005)
T087C 000:530.645 - 0.022ms returns 0x00
T087C 000:530.656 JLINK_ReadReg(R0)
T087C 000:530.666 - 0.013ms returns 0x00000000
T087C 000:531.516 JLINK_HasError()
T087C 000:531.558 JLINK_WriteReg(R0, 0x00000400)
T087C 000:531.571 - 0.017ms returns 0
T087C 000:531.582 JLINK_WriteReg(R1, 0x00000200)
T087C 000:531.592 - 0.014ms returns 0
T087C 000:531.603 JLINK_WriteReg(R2, 0x000000FF)
T087C 000:531.612 - 0.013ms returns 0
T087C 000:531.622 JLINK_WriteReg(R3, 0x00000000)
T087C 000:531.631 - 0.013ms returns 0
T087C 000:531.641 JLINK_WriteReg(R4, 0x00000000)
T087C 000:531.651 - 0.013ms returns 0
T087C 000:531.661 JLINK_WriteReg(R5, 0x00000000)
T087C 000:531.670 - 0.014ms returns 0
T087C 000:531.681 JLINK_WriteReg(R6, 0x00000000)
T087C 000:531.690 - 0.013ms returns 0
T087C 000:531.701 JLINK_WriteReg(R7, 0x00000000)
T087C 000:531.710 - 0.013ms returns 0
T087C 000:531.720 JLINK_WriteReg(R8, 0x00000000)
T087C 000:531.729 - 0.013ms returns 0
T087C 000:531.739 JLINK_WriteReg(R9, 0x1FFFFDA8)
T087C 000:531.748 - 0.013ms returns 0
T087C 000:531.758 JLINK_WriteReg(R10, 0x00000000)
T087C 000:531.767 - 0.013ms returns 0
T087C 000:531.777 JLINK_WriteReg(R11, 0x00000000)
T087C 000:531.786 - 0.013ms returns 0
T087C 000:531.797 JLINK_WriteReg(R12, 0x00000000)
T087C 000:531.806 - 0.013ms returns 0
T087C 000:531.816 JLINK_WriteReg(R13 (SP), 0x20000C00)
T087C 000:531.826 - 0.014ms returns 0
T087C 000:531.836 JLINK_WriteReg(R14, 0x1FFFFC01)
T087C 000:531.845 - 0.013ms returns 0
T087C 000:531.855 JLINK_WriteReg(R15 (PC), 0x1FFFFC20)
T087C 000:531.865 - 0.013ms returns 0
T087C 000:531.875 JLINK_WriteReg(XPSR, 0x01000000)
T087C 000:531.884 - 0.013ms returns 0
T087C 000:531.894 JLINK_WriteReg(MSP, 0x20000C00)
T087C 000:531.903 - 0.013ms returns 0
T087C 000:531.913 JLINK_WriteReg(PSP, 0x20000C00)
T087C 000:531.923 - 0.013ms returns 0
T087C 000:531.933 JLINK_WriteReg(CFBP, 0x00000000)
T087C 000:531.943 - 0.014ms returns 0
T087C 000:531.953 JLINK_SetBPEx(Addr = 0x1FFFFC00, Type = 0xFFFFFFF2)
T087C 000:531.963 - 0.014ms returns 0x00000006
T087C 000:531.974 JLINK_Go()
T087C 000:531.989   CPU_WriteMem(4 bytes @ 0xE0002000)
T087C 000:532.426   CPU_ReadMem(4 bytes @ 0xE0001000)
T087C 000:532.861   CPU_WriteMem(4 bytes @ 0xE0001000)
T087C 000:535.193 - 3.240ms
T087C 000:535.226 JLINK_IsHalted()
T087C 000:537.004 - 1.801ms returns TRUE
T087C 000:537.062 JLINK_ReadReg(R15 (PC))
T087C 000:537.086 - 0.033ms returns 0x1FFFFC00
T087C 000:537.116 JLINK_ClrBPEx(BPHandle = 0x00000006)
T087C 000:537.136 - 0.027ms returns 0x00
T087C 000:537.163 JLINK_ReadReg(R0)
T087C 000:537.181 - 0.025ms returns 0x00000001
T087C 000:537.207 JLINK_HasError()
T087C 000:537.228 JLINK_WriteReg(R0, 0x00000400)
T087C 000:537.247 - 0.027ms returns 0
T087C 000:537.269 JLINK_WriteReg(R1, 0x00000200)
T087C 000:537.287 - 0.026ms returns 0
T087C 000:537.312 JLINK_WriteReg(R2, 0x000000FF)
T087C 000:537.332 - 0.028ms returns 0
T087C 000:537.355 JLINK_WriteReg(R3, 0x00000000)
T087C 000:537.373 - 0.026ms returns 0
T087C 000:537.398 JLINK_WriteReg(R4, 0x00000000)
T087C 000:537.421 - 0.032ms returns 0
T087C 000:537.447 JLINK_WriteReg(R5, 0x00000000)
T087C 000:537.469 - 0.036ms returns 0
T087C 000:537.506 JLINK_WriteReg(R6, 0x00000000)
T087C 000:537.523 - 0.023ms returns 0
T087C 000:537.544 JLINK_WriteReg(R7, 0x00000000)
T087C 000:537.566 - 0.031ms returns 0
T087C 000:537.594 JLINK_WriteReg(R8, 0x00000000)
T087C 000:537.616 - 0.032ms returns 0
T087C 000:537.640 JLINK_WriteReg(R9, 0x1FFFFDA8)
T087C 000:537.652 - 0.019ms returns 0
T087C 000:537.672 JLINK_WriteReg(R10, 0x00000000)
T087C 000:537.684 - 0.018ms returns 0
T087C 000:537.702 JLINK_WriteReg(R11, 0x00000000)
T087C 000:537.714 - 0.018ms returns 0
T087C 000:537.733 JLINK_WriteReg(R12, 0x00000000)
T087C 000:537.745 - 0.017ms returns 0
T087C 000:537.763 JLINK_WriteReg(R13 (SP), 0x20000C00)
T087C 000:537.776 - 0.018ms returns 0
T087C 000:537.794 JLINK_WriteReg(R14, 0x1FFFFC01)
T087C 000:537.806 - 0.018ms returns 0
T087C 000:537.834 JLINK_WriteReg(R15 (PC), 0x1FFFFCDA)
T087C 000:537.850 - 0.023ms returns 0
T087C 000:537.869 JLINK_WriteReg(XPSR, 0x01000000)
T087C 000:537.882 - 0.018ms returns 0
T087C 000:537.900 JLINK_WriteReg(MSP, 0x20000C00)
T087C 000:537.912 - 0.017ms returns 0
T087C 000:537.930 JLINK_WriteReg(PSP, 0x20000C00)
T087C 000:537.942 - 0.017ms returns 0
T087C 000:537.960 JLINK_WriteReg(CFBP, 0x00000000)
T087C 000:537.972 - 0.017ms returns 0
T087C 000:537.990 JLINK_SetBPEx(Addr = 0x1FFFFC00, Type = 0xFFFFFFF2)
T087C 000:538.004 - 0.020ms returns 0x00000007
T087C 000:538.022 JLINK_Go()
T087C 000:538.042   CPU_WriteMem(4 bytes @ 0xE0002000)
T087C 000:538.342   CPU_ReadMem(4 bytes @ 0xE0001000)
T087C 000:538.594   CPU_WriteMem(4 bytes @ 0xE0001000)
T087C 000:540.605 - 2.599ms
T087C 000:540.640 JLINK_IsHalted()
T087C 000:540.879 - 0.248ms returns FALSE
T087C 000:540.903 JLINK_HasError()
T087C 000:543.911 JLINK_IsHalted()
T087C 000:544.216 - 0.317ms returns FALSE
T087C 000:544.238 JLINK_HasError()
T087C 000:545.907 JLINK_IsHalted()
T087C 000:546.238 - 0.352ms returns FALSE
T087C 000:546.272 JLINK_HasError()
T087C 000:547.910 JLINK_IsHalted()
T087C 000:548.215 - 0.315ms returns FALSE
T087C 000:548.235 JLINK_HasError()
T087C 000:550.024 JLINK_IsHalted()
T087C 000:550.413 - 0.407ms returns FALSE
T087C 000:550.443 JLINK_HasError()
T087C 000:551.981 JLINK_IsHalted()
T087C 000:552.331 - 0.359ms returns FALSE
T087C 000:552.350 JLINK_HasError()
T087C 000:553.927 JLINK_IsHalted()
T087C 000:554.268 - 0.354ms returns FALSE
T087C 000:554.291 JLINK_HasError()
T087C 000:555.947 JLINK_IsHalted()
T087C 000:556.223 - 0.293ms returns FALSE
T087C 000:556.252 JLINK_HasError()
T087C 000:557.907 JLINK_IsHalted()
T087C 000:558.248 - 0.351ms returns FALSE
T087C 000:558.267 JLINK_HasError()
T087C 000:559.881 JLINK_IsHalted()
T087C 000:560.234 - 0.363ms returns FALSE
T087C 000:560.253 JLINK_HasError()
T087C 000:565.790 JLINK_IsHalted()
T087C 000:567.878 - 2.108ms returns TRUE
T087C 000:567.924 JLINK_ReadReg(R15 (PC))
T087C 000:567.948 - 0.031ms returns 0x1FFFFC00
T087C 000:567.971 JLINK_ClrBPEx(BPHandle = 0x00000007)
T087C 000:567.990 - 0.025ms returns 0x00
T087C 000:568.011 JLINK_ReadReg(R0)
T087C 000:568.028 - 0.025ms returns 0x00000000
T087C 000:568.928 JLINK_HasError()
T087C 000:568.961 JLINK_WriteReg(R0, 0x00000600)
T087C 000:568.976 - 0.019ms returns 0
T087C 000:568.988 JLINK_WriteReg(R1, 0x00000200)
T087C 000:568.998 - 0.014ms returns 0
T087C 000:569.009 JLINK_WriteReg(R2, 0x000000FF)
T087C 000:569.018 - 0.014ms returns 0
T087C 000:569.029 JLINK_WriteReg(R3, 0x00000000)
T087C 000:569.038 - 0.014ms returns 0
T087C 000:569.049 JLINK_WriteReg(R4, 0x00000000)
T087C 000:569.059 - 0.014ms returns 0
T087C 000:569.070 JLINK_WriteReg(R5, 0x00000000)
T087C 000:569.079 - 0.013ms returns 0
T087C 000:569.090 JLINK_WriteReg(R6, 0x00000000)
T087C 000:569.099 - 0.013ms returns 0
T087C 000:569.110 JLINK_WriteReg(R7, 0x00000000)
T087C 000:569.120 - 0.013ms returns 0
T087C 000:569.130 JLINK_WriteReg(R8, 0x00000000)
T087C 000:569.140 - 0.014ms returns 0
T087C 000:569.151 JLINK_WriteReg(R9, 0x1FFFFDA8)
T087C 000:569.161 - 0.014ms returns 0
T087C 000:569.174 JLINK_WriteReg(R10, 0x00000000)
T087C 000:569.184 - 0.013ms returns 0
T087C 000:569.195 JLINK_WriteReg(R11, 0x00000000)
T087C 000:569.204 - 0.013ms returns 0
T087C 000:569.214 JLINK_WriteReg(R12, 0x00000000)
T087C 000:569.223 - 0.013ms returns 0
T087C 000:569.234 JLINK_WriteReg(R13 (SP), 0x20000C00)
T087C 000:569.244 - 0.014ms returns 0
T087C 000:569.254 JLINK_WriteReg(R14, 0x1FFFFC01)
T087C 000:569.263 - 0.013ms returns 0
T087C 000:569.274 JLINK_WriteReg(R15 (PC), 0x1FFFFC20)
T087C 000:569.283 - 0.014ms returns 0
T087C 000:569.294 JLINK_WriteReg(XPSR, 0x01000000)
T087C 000:569.304 - 0.014ms returns 0
T087C 000:569.314 JLINK_WriteReg(MSP, 0x20000C00)
T087C 000:569.324 - 0.014ms returns 0
T087C 000:569.334 JLINK_WriteReg(PSP, 0x20000C00)
T087C 000:569.344 - 0.014ms returns 0
T087C 000:569.355 JLINK_WriteReg(CFBP, 0x00000000)
T087C 000:569.373 - 0.029ms returns 0
T087C 000:569.396 JLINK_SetBPEx(Addr = 0x1FFFFC00, Type = 0xFFFFFFF2)
T087C 000:569.414 - 0.025ms returns 0x00000008
T087C 000:569.432 JLINK_Go()
T087C 000:569.458   CPU_WriteMem(4 bytes @ 0xE0002000)
T087C 000:569.828   CPU_ReadMem(4 bytes @ 0xE0001000)
T087C 000:570.408   CPU_WriteMem(4 bytes @ 0xE0001000)
T087C 000:572.487 - 3.072ms
T087C 000:572.515 JLINK_IsHalted()
T087C 000:574.504 - 2.009ms returns TRUE
T087C 000:574.536 JLINK_ReadReg(R15 (PC))
T087C 000:574.549 - 0.017ms returns 0x1FFFFC00
T087C 000:574.561 JLINK_ClrBPEx(BPHandle = 0x00000008)
T087C 000:574.571 - 0.014ms returns 0x00
T087C 000:574.582 JLINK_ReadReg(R0)
T087C 000:574.592 - 0.014ms returns 0x00000001
T087C 000:574.609 JLINK_HasError()
T087C 000:574.627 JLINK_WriteReg(R0, 0x00000600)
T087C 000:574.644 - 0.025ms returns 0
T087C 000:574.663 JLINK_WriteReg(R1, 0x00000200)
T087C 000:574.679 - 0.023ms returns 0
T087C 000:574.697 JLINK_WriteReg(R2, 0x000000FF)
T087C 000:574.713 - 0.023ms returns 0
T087C 000:574.731 JLINK_WriteReg(R3, 0x00000000)
T087C 000:574.747 - 0.023ms returns 0
T087C 000:574.765 JLINK_WriteReg(R4, 0x00000000)
T087C 000:574.781 - 0.023ms returns 0
T087C 000:574.799 JLINK_WriteReg(R5, 0x00000000)
T087C 000:574.816 - 0.024ms returns 0
T087C 000:574.835 JLINK_WriteReg(R6, 0x00000000)
T087C 000:574.852 - 0.024ms returns 0
T087C 000:574.870 JLINK_WriteReg(R7, 0x00000000)
T087C 000:574.886 - 0.023ms returns 0
T087C 000:574.905 JLINK_WriteReg(R8, 0x00000000)
T087C 000:574.921 - 0.023ms returns 0
T087C 000:574.939 JLINK_WriteReg(R9, 0x1FFFFDA8)
T087C 000:574.955 - 0.023ms returns 0
T087C 000:574.974 JLINK_WriteReg(R10, 0x00000000)
T087C 000:574.990 - 0.023ms returns 0
T087C 000:575.008 JLINK_WriteReg(R11, 0x00000000)
T087C 000:575.025 - 0.024ms returns 0
T087C 000:575.043 JLINK_WriteReg(R12, 0x00000000)
T087C 000:575.059 - 0.023ms returns 0
T087C 000:575.083 JLINK_WriteReg(R13 (SP), 0x20000C00)
T087C 000:575.116 - 0.047ms returns 0
T087C 000:575.150 JLINK_WriteReg(R14, 0x1FFFFC01)
T087C 000:575.172 - 0.029ms returns 0
T087C 000:575.191 JLINK_WriteReg(R15 (PC), 0x1FFFFCDA)
T087C 000:575.208 - 0.024ms returns 0
T087C 000:575.227 JLINK_WriteReg(XPSR, 0x01000000)
T087C 000:575.243 - 0.023ms returns 0
T087C 000:575.261 JLINK_WriteReg(MSP, 0x20000C00)
T087C 000:575.277 - 0.023ms returns 0
T087C 000:575.296 JLINK_WriteReg(PSP, 0x20000C00)
T087C 000:575.312 - 0.023ms returns 0
T087C 000:575.331 JLINK_WriteReg(CFBP, 0x00000000)
T087C 000:575.347 - 0.023ms returns 0
T087C 000:575.366 JLINK_SetBPEx(Addr = 0x1FFFFC00, Type = 0xFFFFFFF2)
T087C 000:575.384 - 0.025ms returns 0x00000009
T087C 000:575.403 JLINK_Go()
T087C 000:575.426   CPU_WriteMem(4 bytes @ 0xE0002000)
T087C 000:575.831   CPU_ReadMem(4 bytes @ 0xE0001000)
T087C 000:576.140   CPU_WriteMem(4 bytes @ 0xE0001000)
T087C 000:578.183 - 2.793ms
T087C 000:578.207 JLINK_IsHalted()
T087C 000:578.444 - 0.246ms returns FALSE
T087C 000:578.463 JLINK_HasError()
T087C 000:582.161 JLINK_IsHalted()
T087C 000:582.599 - 0.456ms returns FALSE
T087C 000:582.630 JLINK_HasError()
T087C 000:584.072 JLINK_IsHalted()
T087C 000:584.485 - 0.426ms returns FALSE
T087C 000:584.508 JLINK_HasError()
T087C 000:586.100 JLINK_IsHalted()
T087C 000:586.404 - 0.316ms returns FALSE
T087C 000:586.427 JLINK_HasError()
T087C 000:588.085 JLINK_IsHalted()
T087C 000:588.427 - 0.352ms returns FALSE
T087C 000:588.447 JLINK_HasError()
T087C 000:590.355 JLINK_IsHalted()
T087C 000:590.647 - 0.310ms returns FALSE
T087C 000:590.677 JLINK_HasError()
T087C 000:592.669 JLINK_IsHalted()
T087C 000:593.102 - 0.450ms returns FALSE
T087C 000:593.132 JLINK_HasError()
T087C 000:594.699 JLINK_IsHalted()
T087C 000:595.035 - 0.367ms returns FALSE
T087C 000:595.087 JLINK_HasError()
T087C 000:596.762 JLINK_IsHalted()
T087C 000:597.158 - 0.413ms returns FALSE
T087C 000:597.188 JLINK_HasError()
T087C 000:598.702 JLINK_IsHalted()
T087C 000:599.076 - 0.391ms returns FALSE
T087C 000:599.105 JLINK_HasError()
T087C 000:601.119 JLINK_IsHalted()
T087C 000:603.070 - 1.969ms returns TRUE
T087C 000:603.099 JLINK_ReadReg(R15 (PC))
T087C 000:603.113 - 0.018ms returns 0x1FFFFC00
T087C 000:603.125 JLINK_ClrBPEx(BPHandle = 0x00000009)
T087C 000:603.135 - 0.015ms returns 0x00
T087C 000:603.147 JLINK_ReadReg(R0)
T087C 000:603.156 - 0.014ms returns 0x00000000
T087C 000:604.437 JLINK_HasError()
T087C 000:604.480 JLINK_WriteReg(R0, 0x00000800)
T087C 000:604.504 - 0.032ms returns 0
T087C 000:604.524 JLINK_WriteReg(R1, 0x00000200)
T087C 000:604.540 - 0.023ms returns 0
T087C 000:604.558 JLINK_WriteReg(R2, 0x000000FF)
T087C 000:604.574 - 0.023ms returns 0
T087C 000:604.590 JLINK_WriteReg(R3, 0x00000000)
T087C 000:604.600 - 0.014ms returns 0
T087C 000:604.610 JLINK_WriteReg(R4, 0x00000000)
T087C 000:604.619 - 0.013ms returns 0
T087C 000:604.629 JLINK_WriteReg(R5, 0x00000000)
T087C 000:604.638 - 0.013ms returns 0
T087C 000:604.648 JLINK_WriteReg(R6, 0x00000000)
T087C 000:604.657 - 0.013ms returns 0
T087C 000:604.667 JLINK_WriteReg(R7, 0x00000000)
T087C 000:604.676 - 0.013ms returns 0
T087C 000:604.686 JLINK_WriteReg(R8, 0x00000000)
T087C 000:604.695 - 0.013ms returns 0
T087C 000:604.705 JLINK_WriteReg(R9, 0x1FFFFDA8)
T087C 000:604.714 - 0.013ms returns 0
T087C 000:604.725 JLINK_WriteReg(R10, 0x00000000)
T087C 000:604.734 - 0.013ms returns 0
T087C 000:604.744 JLINK_WriteReg(R11, 0x00000000)
T087C 000:604.768 - 0.029ms returns 0
T087C 000:604.779 JLINK_WriteReg(R12, 0x00000000)
T087C 000:604.788 - 0.013ms returns 0
T087C 000:604.799 JLINK_WriteReg(R13 (SP), 0x20000C00)
T087C 000:604.809 - 0.014ms returns 0
T087C 000:604.819 JLINK_WriteReg(R14, 0x1FFFFC01)
T087C 000:604.828 - 0.013ms returns 0
T087C 000:604.838 JLINK_WriteReg(R15 (PC), 0x1FFFFC20)
T087C 000:604.847 - 0.013ms returns 0
T087C 000:604.858 JLINK_WriteReg(XPSR, 0x01000000)
T087C 000:604.867 - 0.013ms returns 0
T087C 000:604.877 JLINK_WriteReg(MSP, 0x20000C00)
T087C 000:604.886 - 0.013ms returns 0
T087C 000:604.897 JLINK_WriteReg(PSP, 0x20000C00)
T087C 000:604.906 - 0.013ms returns 0
T087C 000:604.916 JLINK_WriteReg(CFBP, 0x00000000)
T087C 000:604.925 - 0.013ms returns 0
T087C 000:604.936 JLINK_SetBPEx(Addr = 0x1FFFFC00, Type = 0xFFFFFFF2)
T087C 000:604.946 - 0.015ms returns 0x0000000A
T087C 000:604.957 JLINK_Go()
T087C 000:604.972   CPU_WriteMem(4 bytes @ 0xE0002000)
T087C 000:605.401   CPU_ReadMem(4 bytes @ 0xE0001000)
T087C 000:605.779   CPU_WriteMem(4 bytes @ 0xE0001000)
T087C 000:607.898 - 2.959ms
T087C 000:607.928 JLINK_IsHalted()
T087C 000:609.925 - 2.018ms returns TRUE
T087C 000:609.960 JLINK_ReadReg(R15 (PC))
T087C 000:609.976 - 0.022ms returns 0x1FFFFC00
T087C 000:609.990 JLINK_ClrBPEx(BPHandle = 0x0000000A)
T087C 000:610.003 - 0.017ms returns 0x00
T087C 000:610.016 JLINK_ReadReg(R0)
T087C 000:610.027 - 0.016ms returns 0x00000001
T087C 000:610.041 JLINK_HasError()
T087C 000:610.054 JLINK_WriteReg(R0, 0x00000800)
T087C 000:610.065 - 0.017ms returns 0
T087C 000:610.078 JLINK_WriteReg(R1, 0x00000200)
T087C 000:610.090 - 0.016ms returns 0
T087C 000:610.102 JLINK_WriteReg(R2, 0x000000FF)
T087C 000:610.113 - 0.016ms returns 0
T087C 000:610.126 JLINK_WriteReg(R3, 0x00000000)
T087C 000:610.137 - 0.016ms returns 0
T087C 000:610.149 JLINK_WriteReg(R4, 0x00000000)
T087C 000:610.160 - 0.016ms returns 0
T087C 000:610.173 JLINK_WriteReg(R5, 0x00000000)
T087C 000:610.183 - 0.016ms returns 0
T087C 000:610.196 JLINK_WriteReg(R6, 0x00000000)
T087C 000:610.207 - 0.016ms returns 0
T087C 000:610.220 JLINK_WriteReg(R7, 0x00000000)
T087C 000:610.231 - 0.016ms returns 0
T087C 000:610.244 JLINK_WriteReg(R8, 0x00000000)
T087C 000:610.255 - 0.016ms returns 0
T087C 000:610.268 JLINK_WriteReg(R9, 0x1FFFFDA8)
T087C 000:610.279 - 0.016ms returns 0
T087C 000:610.292 JLINK_WriteReg(R10, 0x00000000)
T087C 000:610.303 - 0.016ms returns 0
T087C 000:610.315 JLINK_WriteReg(R11, 0x00000000)
T087C 000:610.326 - 0.016ms returns 0
T087C 000:610.339 JLINK_WriteReg(R12, 0x00000000)
T087C 000:610.350 - 0.016ms returns 0
T087C 000:610.362 JLINK_WriteReg(R13 (SP), 0x20000C00)
T087C 000:610.386 - 0.028ms returns 0
T087C 000:610.398 JLINK_WriteReg(R14, 0x1FFFFC01)
T087C 000:610.410 - 0.016ms returns 0
T087C 000:610.422 JLINK_WriteReg(R15 (PC), 0x1FFFFCDA)
T087C 000:610.433 - 0.016ms returns 0
T087C 000:610.446 JLINK_WriteReg(XPSR, 0x01000000)
T087C 000:610.457 - 0.016ms returns 0
T087C 000:610.469 JLINK_WriteReg(MSP, 0x20000C00)
T087C 000:610.480 - 0.016ms returns 0
T087C 000:610.493 JLINK_WriteReg(PSP, 0x20000C00)
T087C 000:610.504 - 0.016ms returns 0
T087C 000:610.516 JLINK_WriteReg(CFBP, 0x00000000)
T087C 000:610.527 - 0.016ms returns 0
T087C 000:610.540 JLINK_SetBPEx(Addr = 0x1FFFFC00, Type = 0xFFFFFFF2)
T087C 000:610.550 - 0.014ms returns 0x0000000B
T087C 000:610.560 JLINK_Go()
T087C 000:610.572   CPU_WriteMem(4 bytes @ 0xE0002000)
T087C 000:611.048   CPU_ReadMem(4 bytes @ 0xE0001000)
T087C 000:611.470   CPU_WriteMem(4 bytes @ 0xE0001000)
T087C 000:613.551 - 3.009ms
T087C 000:613.581 JLINK_IsHalted()
T087C 000:613.820 - 0.247ms returns FALSE
T087C 000:613.837 JLINK_HasError()
T087C 000:616.830 JLINK_IsHalted()
T087C 000:617.222 - 0.424ms returns FALSE
T087C 000:617.275 JLINK_HasError()
T087C 000:618.755 JLINK_IsHalted()
T087C 000:619.066 - 0.334ms returns FALSE
T087C 000:619.128 JLINK_HasError()
T087C 000:620.764 JLINK_IsHalted()
T087C 000:621.139 - 0.396ms returns FALSE
T087C 000:621.171 JLINK_HasError()
T087C 000:622.733 JLINK_IsHalted()
T087C 000:623.003 - 0.280ms returns FALSE
T087C 000:623.023 JLINK_HasError()
T087C 000:625.029 JLINK_IsHalted()
T087C 000:625.436 - 0.426ms returns FALSE
T087C 000:625.468 JLINK_HasError()
T087C 000:627.465 JLINK_IsHalted()
T087C 000:627.828 - 0.381ms returns FALSE
T087C 000:627.863 JLINK_HasError()
T087C 000:629.469 JLINK_IsHalted()
T087C 000:629.750 - 0.298ms returns FALSE
T087C 000:629.779 JLINK_HasError()
T087C 000:631.491 JLINK_IsHalted()
T087C 000:631.979 - 0.505ms returns FALSE
T087C 000:632.008 JLINK_HasError()
T087C 000:633.460 JLINK_IsHalted()
T087C 000:633.852 - 0.410ms returns FALSE
T087C 000:633.883 JLINK_HasError()
T087C 000:635.428 JLINK_IsHalted()
T087C 000:637.378 - 1.972ms returns TRUE
T087C 000:637.412 JLINK_ReadReg(R15 (PC))
T087C 000:637.426 - 0.018ms returns 0x1FFFFC00
T087C 000:637.438 JLINK_ClrBPEx(BPHandle = 0x0000000B)
T087C 000:637.448 - 0.015ms returns 0x00
T087C 000:637.459 JLINK_ReadReg(R0)
T087C 000:637.469 - 0.014ms returns 0x00000000
T087C 000:638.393 JLINK_HasError()
T087C 000:638.431 JLINK_WriteReg(R0, 0x00000A00)
T087C 000:638.454 - 0.032ms returns 0
T087C 000:638.474 JLINK_WriteReg(R1, 0x00000200)
T087C 000:638.485 - 0.016ms returns 0
T087C 000:638.496 JLINK_WriteReg(R2, 0x000000FF)
T087C 000:638.505 - 0.013ms returns 0
T087C 000:638.516 JLINK_WriteReg(R3, 0x00000000)
T087C 000:638.525 - 0.013ms returns 0
T087C 000:638.535 JLINK_WriteReg(R4, 0x00000000)
T087C 000:638.544 - 0.013ms returns 0
T087C 000:638.555 JLINK_WriteReg(R5, 0x00000000)
T087C 000:638.564 - 0.013ms returns 0
T087C 000:638.574 JLINK_WriteReg(R6, 0x00000000)
T087C 000:638.583 - 0.013ms returns 0
T087C 000:638.593 JLINK_WriteReg(R7, 0x00000000)
T087C 000:638.602 - 0.013ms returns 0
T087C 000:638.612 JLINK_WriteReg(R8, 0x00000000)
T087C 000:638.621 - 0.013ms returns 0
T087C 000:638.631 JLINK_WriteReg(R9, 0x1FFFFDA8)
T087C 000:638.641 - 0.013ms returns 0
T087C 000:638.651 JLINK_WriteReg(R10, 0x00000000)
T087C 000:638.660 - 0.013ms returns 0
T087C 000:638.670 JLINK_WriteReg(R11, 0x00000000)
T087C 000:638.679 - 0.013ms returns 0
T087C 000:638.689 JLINK_WriteReg(R12, 0x00000000)
T087C 000:638.698 - 0.013ms returns 0
T087C 000:638.708 JLINK_WriteReg(R13 (SP), 0x20000C00)
T087C 000:638.718 - 0.013ms returns 0
T087C 000:638.728 JLINK_WriteReg(R14, 0x1FFFFC01)
T087C 000:638.737 - 0.013ms returns 0
T087C 000:638.747 JLINK_WriteReg(R15 (PC), 0x1FFFFC20)
T087C 000:638.757 - 0.013ms returns 0
T087C 000:638.767 JLINK_WriteReg(XPSR, 0x01000000)
T087C 000:638.776 - 0.013ms returns 0
T087C 000:638.787 JLINK_WriteReg(MSP, 0x20000C00)
T087C 000:638.796 - 0.021ms returns 0
T087C 000:638.820 JLINK_WriteReg(PSP, 0x20000C00)
T087C 000:638.830 - 0.014ms returns 0
T087C 000:638.840 JLINK_WriteReg(CFBP, 0x00000000)
T087C 000:638.849 - 0.013ms returns 0
T087C 000:638.859 JLINK_SetBPEx(Addr = 0x1FFFFC00, Type = 0xFFFFFFF2)
T087C 000:638.870 - 0.015ms returns 0x0000000C
T087C 000:638.880 JLINK_Go()
T087C 000:638.896   CPU_WriteMem(4 bytes @ 0xE0002000)
T087C 000:639.194   CPU_ReadMem(4 bytes @ 0xE0001000)
T087C 000:639.493   CPU_WriteMem(4 bytes @ 0xE0001000)
T087C 000:641.559 - 2.691ms
T087C 000:641.582 JLINK_IsHalted()
T087C 000:643.403 - 1.833ms returns TRUE
T087C 000:643.425 JLINK_ReadReg(R15 (PC))
T087C 000:643.437 - 0.015ms returns 0x1FFFFC00
T087C 000:643.448 JLINK_ClrBPEx(BPHandle = 0x0000000C)
T087C 000:643.458 - 0.014ms returns 0x00
T087C 000:643.469 JLINK_ReadReg(R0)
T087C 000:643.478 - 0.013ms returns 0x00000001
T087C 000:643.489 JLINK_HasError()
T087C 000:643.500 JLINK_WriteReg(R0, 0x00000A00)
T087C 000:643.510 - 0.014ms returns 0
T087C 000:643.520 JLINK_WriteReg(R1, 0x00000200)
T087C 000:643.529 - 0.013ms returns 0
T087C 000:643.540 JLINK_WriteReg(R2, 0x000000FF)
T087C 000:643.548 - 0.013ms returns 0
T087C 000:643.559 JLINK_WriteReg(R3, 0x00000000)
T087C 000:643.567 - 0.013ms returns 0
T087C 000:643.578 JLINK_WriteReg(R4, 0x00000000)
T087C 000:643.587 - 0.013ms returns 0
T087C 000:643.597 JLINK_WriteReg(R5, 0x00000000)
T087C 000:643.606 - 0.013ms returns 0
T087C 000:643.616 JLINK_WriteReg(R6, 0x00000000)
T087C 000:643.625 - 0.013ms returns 0
T087C 000:643.635 JLINK_WriteReg(R7, 0x00000000)
T087C 000:643.644 - 0.013ms returns 0
T087C 000:643.655 JLINK_WriteReg(R8, 0x00000000)
T087C 000:643.664 - 0.013ms returns 0
T087C 000:643.674 JLINK_WriteReg(R9, 0x1FFFFDA8)
T087C 000:643.683 - 0.013ms returns 0
T087C 000:643.693 JLINK_WriteReg(R10, 0x00000000)
T087C 000:643.702 - 0.013ms returns 0
T087C 000:643.713 JLINK_WriteReg(R11, 0x00000000)
T087C 000:643.722 - 0.013ms returns 0
T087C 000:643.732 JLINK_WriteReg(R12, 0x00000000)
T087C 000:643.741 - 0.013ms returns 0
T087C 000:643.752 JLINK_WriteReg(R13 (SP), 0x20000C00)
T087C 000:643.761 - 0.013ms returns 0
T087C 000:643.771 JLINK_WriteReg(R14, 0x1FFFFC01)
T087C 000:643.781 - 0.013ms returns 0
T087C 000:643.791 JLINK_WriteReg(R15 (PC), 0x1FFFFCDA)
T087C 000:643.800 - 0.013ms returns 0
T087C 000:643.810 JLINK_WriteReg(XPSR, 0x01000000)
T087C 000:643.819 - 0.013ms returns 0
T087C 000:643.829 JLINK_WriteReg(MSP, 0x20000C00)
T087C 000:643.838 - 0.013ms returns 0
T087C 000:643.849 JLINK_WriteReg(PSP, 0x20000C00)
T087C 000:643.858 - 0.013ms returns 0
T087C 000:643.882 JLINK_WriteReg(CFBP, 0x00000000)
T087C 000:643.892 - 0.014ms returns 0
T087C 000:643.903 JLINK_SetBPEx(Addr = 0x1FFFFC00, Type = 0xFFFFFFF2)
T087C 000:643.913 - 0.014ms returns 0x0000000D
T087C 000:643.924 JLINK_Go()
T087C 000:643.937   CPU_WriteMem(4 bytes @ 0xE0002000)
T087C 000:644.214   CPU_ReadMem(4 bytes @ 0xE0001000)
T087C 000:644.565   CPU_WriteMem(4 bytes @ 0xE0001000)
T087C 000:646.762 - 2.850ms
T087C 000:646.793 JLINK_IsHalted()
T087C 000:647.094 - 0.310ms returns FALSE
T087C 000:647.119 JLINK_HasError()
T087C 000:649.909 JLINK_IsHalted()
T087C 000:650.308 - 0.432ms returns FALSE
T087C 000:650.359 JLINK_HasError()
T087C 000:651.904 JLINK_IsHalted()
T087C 000:652.239 - 0.353ms returns FALSE
T087C 000:652.271 JLINK_HasError()
T087C 000:653.894 JLINK_IsHalted()
T087C 000:654.196 - 0.318ms returns FALSE
T087C 000:654.222 JLINK_HasError()
T087C 000:655.886 JLINK_IsHalted()
T087C 000:656.187 - 0.311ms returns FALSE
T087C 000:656.206 JLINK_HasError()
T087C 000:657.978 JLINK_IsHalted()
T087C 000:658.424 - 0.464ms returns FALSE
T087C 000:658.454 JLINK_HasError()
T087C 000:659.908 JLINK_IsHalted()
T087C 000:660.292 - 0.401ms returns FALSE
T087C 000:660.322 JLINK_HasError()
T087C 000:661.880 JLINK_IsHalted()
T087C 000:662.173 - 0.303ms returns FALSE
T087C 000:662.194 JLINK_HasError()
T087C 000:664.148 JLINK_IsHalted()
T087C 000:664.500 - 0.362ms returns FALSE
T087C 000:664.527 JLINK_HasError()
T087C 000:666.536 JLINK_IsHalted()
T087C 000:666.915 - 0.399ms returns FALSE
T087C 000:666.947 JLINK_HasError()
T087C 000:668.536 JLINK_IsHalted()
T087C 000:670.395 - 1.877ms returns TRUE
T087C 000:670.423 JLINK_ReadReg(R15 (PC))
T087C 000:670.437 - 0.017ms returns 0x1FFFFC00
T087C 000:670.448 JLINK_ClrBPEx(BPHandle = 0x0000000D)
T087C 000:670.458 - 0.014ms returns 0x00
T087C 000:670.469 JLINK_ReadReg(R0)
T087C 000:670.479 - 0.013ms returns 0x00000000
T087C 000:671.365 JLINK_HasError()
T087C 000:671.392 JLINK_WriteReg(R0, 0x00000C00)
T087C 000:671.405 - 0.018ms returns 0
T087C 000:671.417 JLINK_WriteReg(R1, 0x00000200)
T087C 000:671.427 - 0.014ms returns 0
T087C 000:671.438 JLINK_WriteReg(R2, 0x000000FF)
T087C 000:671.447 - 0.013ms returns 0
T087C 000:671.458 JLINK_WriteReg(R3, 0x00000000)
T087C 000:671.467 - 0.013ms returns 0
T087C 000:671.477 JLINK_WriteReg(R4, 0x00000000)
T087C 000:671.487 - 0.014ms returns 0
T087C 000:671.497 JLINK_WriteReg(R5, 0x00000000)
T087C 000:671.507 - 0.013ms returns 0
T087C 000:671.517 JLINK_WriteReg(R6, 0x00000000)
T087C 000:671.527 - 0.013ms returns 0
T087C 000:671.537 JLINK_WriteReg(R7, 0x00000000)
T087C 000:671.546 - 0.013ms returns 0
T087C 000:671.557 JLINK_WriteReg(R8, 0x00000000)
T087C 000:671.566 - 0.013ms returns 0
T087C 000:671.577 JLINK_WriteReg(R9, 0x1FFFFDA8)
T087C 000:671.586 - 0.013ms returns 0
T087C 000:671.597 JLINK_WriteReg(R10, 0x00000000)
T087C 000:671.606 - 0.013ms returns 0
T087C 000:671.616 JLINK_WriteReg(R11, 0x00000000)
T087C 000:671.625 - 0.013ms returns 0
T087C 000:671.636 JLINK_WriteReg(R12, 0x00000000)
T087C 000:671.645 - 0.013ms returns 0
T087C 000:671.656 JLINK_WriteReg(R13 (SP), 0x20000C00)
T087C 000:671.666 - 0.014ms returns 0
T087C 000:671.676 JLINK_WriteReg(R14, 0x1FFFFC01)
T087C 000:671.685 - 0.013ms returns 0
T087C 000:671.696 JLINK_WriteReg(R15 (PC), 0x1FFFFC20)
